
T1748 000:302 SEGGER J-Link V4.94j Log File (0000ms, 0265ms total)
T1748 000:302 DLL Compiled: Dec 10 2014 13:52:41 (0000ms, 0265ms total)
T1748 000:302 Logging started @ 2018-03-26 21:37 (0001ms, 0266ms total)
T1748 000:303 JLINK_SetWarnOutHandler(...) (0000ms, 0266ms total)
T1748 000:303 JLINK_OpenEx(...)
Firmware: J-Link ARM V8 compiled Jan 31 2018 18:34:52
Hardware: V8.00
S/N: 20080643
Feature(s): RDI,FlashDL,FlashBP,JFlash,GDBFull  returns O.K. (0263ms, 0529ms total)
T1748 000:566 JLINK_SetErrorOutHandler(...) (0000ms, 0529ms total)
T1748 000:566 JLINK_ExecCommand("ProjectFile = "F:\STM32F4-DEMO\PRJ\JLinkSettings.ini"", ...)  returns 0x00 (0001ms, 0530ms total)
T1748 000:568 JLINK_ExecCommand("Device = STM32F407ZG", ...)Device "STM32F407ZG" selected.  returns 0x00 (0003ms, 0534ms total)
T1748 000:571 JLINK_ExecCommand("DisableConnectionTimeout", ...)  returns 0x01 (0000ms, 0534ms total)
T1748 000:571 JLINK_GetHardwareVersion()  returns 0x13880 (0000ms, 0534ms total)
T1748 000:571 JLINK_GetDLLVersion()  returns 49410 (0000ms, 0534ms total)
T1748 000:571 JLINK_GetFirmwareString(...) (0000ms, 0534ms total)
T1748 000:574 JLINK_GetDLLVersion()  returns 49410 (0000ms, 0534ms total)
T1748 000:574 JLINK_GetCompileDateTime() (0000ms, 0534ms total)
T1748 000:575 JLINK_GetFirmwareString(...) (0000ms, 0535ms total)
T1748 000:576 JLINK_GetHardwareVersion()  returns 0x13880 (0000ms, 0535ms total)
T1748 000:580 JLINK_TIF_Select(JLINKARM_TIF_SWD)  returns 0x00 (0001ms, 0536ms total)
T1748 000:581 JLINK_SetMaxSpeed() >0x108 TIF>Found SWD-DP with ID 0x2BA01477 >0x0D TIF> >0x28 TIF> >0x0D TIF> >0x28 TIF> >0x0D TIF> >0x21 TIF> >0x0D TIF> >0x28 TIF> >0x0D TIF> >0x28 TIF> >0x0D TIF> >0x28 TIF> >0x0D TIF> >0x21 TIF> >0x0D TIF> >0x21 TIF> >0x0D TIF> >0x28 TIF> >0x0D TIF> >0x21 TIF> >0x0D TIF> >0x21 TIF> >0x0D TIF> >0x28 TIF> >0x0D TIF> >0x21 TIF> >0x0D TIF> >0x21 TIF> >0x108 TIF>Found SWD-DP with ID 0x2BA01477 >0x0D TIF> >0x21 TIF> >0x0D TIF> >0x28 TIF> >0x0D TIF> >0x28 TIF> >0x0D TIF>
 >0x21 TIF> >0x0D TIF> >0x28 TIF> >0x0D TIF> >0x21 TIF> >0x0D TIF> >0x21 TIF> >0x0D TIF> >0x21 TIF> >0x0D TIF> >0x28 TIF> >0x0D TIF> >0x21 TIF> >0x0D TIF> >0x28 TIF> >0x0D TIF> >0x28 TIF> >0x0D TIF> >0x21 TIF> >0x0D TIF> >0x28 TIF> >0x0D TIF> >0x28 TIF> >0x0D TIF> >0x28 TIF> >0x0D TIF> >0x21 TIF> >0x0D TIF> >0x21 TIF> >0x0D TIF> >0x28 TIF> >0x0D TIF> >0x21 TIF> >0x0D TIF> >0x21 TIF>Found Cortex-M4 r0p1, Little endian. >0x0D TIF> >0x28 TIF> -- CPU_WriteMem(4 bytes @ 0xE0002000)
 -- CPU_ReadMem(4 bytes @ 0xE000EDF0) -- CPU_ReadMem(4 bytes @ 0xE0002000)FPUnit: 6 code (BP) slots and 2 literal slots -- CPU_ReadMem(4 bytes @ 0xE000EDFC) -- CPU_ReadMem(4 bytes @ 0xE0001000) -- CPU_WriteMem(4 bytes @ 0xE0001000) -- CPU_ReadMem(4 bytes @ 0xE000ED88) -- CPU_WriteMem(4 bytes @ 0xE000ED88) -- CPU_ReadMem(4 bytes @ 0xE000ED88) -- CPU_WriteMem(4 bytes @ 0xE000ED88) -- CPU_ReadMem(4 bytes @ 0xE00FF010)TPIU fitted. -- CPU_ReadMem(4 bytes @ 0xE00FF014)ETM fitted.
 -- CPU_ReadMem(4 bytes @ 0xE00FF018) (0066ms, 0602ms total)
T1748 000:647 JLINK_GetSpeed()  returns 0x7D0 (0000ms, 0602ms total)
T1748 000:647 JLINK_SetSpeed(500) (0000ms, 0602ms total)
T1748 000:647 JLINK_GetId() >0x0D TIF> >0x21 TIF>  returns 0x2BA01477 (0001ms, 0603ms total)
T1748 000:648 JLINK_CORE_GetFound()  returns 0xE0000FF (0000ms, 0603ms total)
T1748 000:648 JLINK_ReadMem (0xE00FFFF0, 0x0010 Bytes, ...) -- CPU is running -- CPU_ReadMem(16 bytes @ 0xE00FFFF0) - Data: 0D 00 00 00 10 00 00 00 05 00 00 00 B1 00 00 00  returns 0x00 (0002ms, 0605ms total)
T1748 000:650 JLINK_ReadMem (0xE00FFFD0, 0x0020 Bytes, ...) -- CPU is running -- CPU_ReadMem(32 bytes @ 0xE00FFFD0) - Data: 00 00 00 00 00 00 00 00 00 00 00 00 00 00 00 00 ...  returns 0x00 (0002ms, 0607ms total)
T1748 000:652 JLINK_ReadMem (0xE00FF000, 0x0018 Bytes, ...) -- CPU is running -- CPU_ReadMem(24 bytes @ 0xE00FF000) - Data: 03 F0 F0 FF 03 20 F0 FF 03 30 F0 FF 03 10 F0 FF ...  returns 0x00 (0001ms, 0608ms total)
T1748 000:653 JLINK_CORE_GetFound()  returns 0xE0000FF (0000ms, 0608ms total)
T1748 000:653 JLINK_ReadMemU32(0xE000EF40, 0x0001 Items, ...) -- CPU is running -- CPU_ReadMem(4 bytes @ 0xE000EF40) - Data: 21 00 11 10  returns 0x01 (0002ms, 0610ms total)
T1748 000:655 JLINK_ReadMemU32(0xE000EF44, 0x0001 Items, ...) -- CPU is running -- CPU_ReadMem(4 bytes @ 0xE000EF44) - Data: 11 00 00 11  returns 0x01 (0001ms, 0611ms total)
T1748 000:656 JLINK_ReadMemU32(0xE000ED00, 0x0001 Items, ...) -- CPU is running -- CPU_ReadMem(4 bytes @ 0xE000ED00) - Data: 41 C2 0F 41  returns 0x01 (0001ms, 0612ms total)
T1748 000:657 JLINK_SetResetType(JLINKARM_RESET_TYPE_NORMAL)  returns JLINKARM_RESET_TYPE_NORMAL (0000ms, 0612ms total)
T1748 000:657 JLINK_Reset() -- CPU_WriteMem(4 bytes @ 0xE0002000) -- CPU_ReadMem(4 bytes @ 0xE000EDFC) -- CPU_WriteMem(4 bytes @ 0xE000EDFC) -- CPU_ReadMem(4 bytes @ 0xE0001000) (0025ms, 0637ms total)
T1748 000:682 JLINK_ReadReg(R15 (PC))  returns 0x08000240 (0000ms, 0637ms total)
T1748 000:682 JLINK_ReadReg(XPSR)  returns 0x01000000 (0000ms, 0637ms total)
T1748 000:682 JLINK_Halt()  returns 0x00 (0000ms, 0637ms total)
T1748 000:682 JLINK_IsHalted()  returns TRUE (0000ms, 0637ms total)
T1748 000:682 JLINK_ReadMemU32(0xE000EDF0, 0x0001 Items, ...) -- CPU_ReadMem(4 bytes @ 0xE000EDF0) - Data: 03 00 03 00  returns 0x01 (0001ms, 0638ms total)
T1748 000:683 JLINK_WriteU32(0xE000EDF0, 0xA05F0003) -- CPU_WriteMem(4 bytes @ 0xE000EDF0)  returns 0x00 (0001ms, 0639ms total)
T1748 000:684 JLINK_WriteU32(0xE000EDFC, 0x01000000) -- CPU_WriteMem(4 bytes @ 0xE000EDFC)  returns 0x00 (0002ms, 0641ms total)
T1748 000:688 JLINK_GetHWStatus(...)  returns 0x00 (0000ms, 0641ms total)
T1748 000:689 JLINK_GetNumBPUnits(Type = 0xFFFFFF00)  returns 0x06 (0000ms, 0641ms total)
T1748 000:689 JLINK_GetNumBPUnits(Type = 0xF0)  returns 0x2000 (0000ms, 0641ms total)
T1748 000:689 JLINK_GetNumWPUnits()  returns 0x04 (0000ms, 0641ms total)
T1748 000:690 JLINK_GetSpeed()  returns 0x1F4 (0000ms, 0641ms total)
T1748 000:691 JLINK_ReadMemU32(0xE000E004, 0x0001 Items, ...) -- CPU_ReadMem(4 bytes @ 0xE000E004) - Data: 02 00 00 00  returns 0x01 (0002ms, 0643ms total)
T1748 000:693 JLINK_ReadMemU32(0xE000E004, 0x0001 Items, ...) -- CPU_ReadMem(4 bytes @ 0xE000E004) - Data: 02 00 00 00  returns 0x01 (0001ms, 0644ms total)
T1748 000:694 JLINK_WriteMem(0xE0001000, 0x001C Bytes, ...) - Data: 01 00 00 00 00 00 00 00 00 00 00 00 00 00 00 00 ... -- CPU_WriteMem(28 bytes @ 0xE0001000)  returns 0x1C (0003ms, 0647ms total)
T1748 000:697 JLINK_ReadMem (0xE0001000, 0x001C Bytes, ...) -- CPU_ReadMem(28 bytes @ 0xE0001000) - Data: 01 00 00 40 00 00 00 00 00 00 00 00 00 00 00 00 ...  returns 0x00 (0002ms, 0649ms total)
T1748 000:699 JLINK_ReadReg(R15 (PC))  returns 0x08000240 (0000ms, 0649ms total)
T1748 000:699 JLINK_ReadReg(XPSR)  returns 0x01000000 (0000ms, 0649ms total)
T1748 000:803 JLINK_SetResetType(JLINKARM_RESET_TYPE_NORMAL)  returns JLINKARM_RESET_TYPE_NORMAL (0001ms, 0650ms total)
T1748 000:804 JLINK_Reset() -- CPU_WriteMem(4 bytes @ 0xE0002000) -- CPU_ReadMem(4 bytes @ 0xE000EDFC) -- CPU_WriteMem(4 bytes @ 0xE000EDFC) -- CPU_ReadMem(4 bytes @ 0xE0001000) (0023ms, 0673ms total)
T1748 000:827 JLINK_ReadReg(R15 (PC))  returns 0x08000240 (0001ms, 0674ms total)
T1748 000:828 JLINK_ReadReg(XPSR)  returns 0x01000000 (0000ms, 0674ms total)
T1748 000:829 JLINK_ReadMem (0x08000240, 0x003C Bytes, ...) -- CPU_ReadMem(64 bytes @ 0x08000240) -- Updating C cache (64 bytes @ 0x08000240) -- Read from C cache (60 bytes @ 0x08000240) - Data: 09 48 80 47 09 48 00 47 FE E7 FE E7 FE E7 FE E7 ...  returns 0x00 (0002ms, 0676ms total)
T1748 001:269 JLINK_ReadMem (0x00000000, 0x0070 Bytes, ...) -- CPU_ReadMem(4 bytes @ 0x00000004) -- CPU_ReadMem(128 bytes @ 0x08000000) -- Updating C cache (128 bytes @ 0x08000000) -- Read from C cache (112 bytes @ 0x08000000) - Data: E0 50 00 20 41 02 00 08 C7 1F 00 08 BF 1F 00 08 ...  returns 0x00 (0005ms, 0681ms total)
T1F38 001:573 JLINK_SetBPEx(Addr = 0x08002960, Type = 0xFFFFFFF2)  returns 0x00000001 (0001ms, 0683ms total)
T1F38 001:574 JLINK_SetBPEx(Addr = 0x08002AAE, Type = 0xFFFFFFF2)  returns 0x00000002 (0000ms, 0683ms total)
T1F38 001:574 JLINK_Go() -- CPU_WriteMem(4 bytes @ 0xE0002000) -- CPU_WriteMem(4 bytes @ 0xE0002008) -- CPU_WriteMem(4 bytes @ 0xE0002000) -- CPU_WriteMem(4 bytes @ 0xE000200C) -- CPU_WriteMem(4 bytes @ 0xE0002010) -- CPU_WriteMem(4 bytes @ 0xE0002014) -- CPU_WriteMem(4 bytes @ 0xE0002018) -- CPU_WriteMem(4 bytes @ 0xE000201C) -- CPU_WriteMem(4 bytes @ 0xE0001004) (0009ms, 0692ms total)
T1F38 001:684 JLINK_IsHalted()  returns TRUE (0008ms, 0700ms total)
T1F38 001:692 JLINK_Halt()  returns 0x00 (0000ms, 0692ms total)
T1F38 001:692 JLINK_IsHalted()  returns TRUE (0000ms, 0692ms total)
T1F38 001:692 JLINK_IsHalted()  returns TRUE (0000ms, 0692ms total)
T1F38 001:692 JLINK_IsHalted()  returns TRUE (0000ms, 0692ms total)
T1F38 001:692 JLINK_ReadReg(R15 (PC))  returns 0x08002960 (0000ms, 0692ms total)
T1F38 001:692 JLINK_ReadReg(XPSR)  returns 0x61000000 (0000ms, 0692ms total)
T1F38 001:692 JLINK_ClrBPEx(BPHandle = 0x00000001)  returns 0x00 (0000ms, 0692ms total)
T1F38 001:692 JLINK_ClrBPEx(BPHandle = 0x00000002)  returns 0x00 (0000ms, 0692ms total)
T1F38 001:692 JLINK_ReadMemU32(0xE000ED30, 0x0001 Items, ...) -- CPU_ReadMem(4 bytes @ 0xE000ED30) - Data: 03 00 00 00  returns 0x01 (0001ms, 0693ms total)
T1F38 001:693 JLINK_ReadMemU32(0xE0001028, 0x0001 Items, ...) -- CPU_ReadMem(4 bytes @ 0xE0001028) - Data: 00 00 00 00  returns 0x01 (0001ms, 0694ms total)
T1F38 001:694 JLINK_ReadMemU32(0xE0001038, 0x0001 Items, ...) -- CPU_ReadMem(4 bytes @ 0xE0001038) - Data: 00 02 00 00  returns 0x01 (0001ms, 0695ms total)
T1F38 001:695 JLINK_ReadMemU32(0xE0001048, 0x0001 Items, ...) -- CPU_ReadMem(4 bytes @ 0xE0001048) - Data: 00 00 00 00  returns 0x01 (0001ms, 0696ms total)
T1F38 001:696 JLINK_ReadMemU32(0xE0001058, 0x0001 Items, ...) -- CPU_ReadMem(4 bytes @ 0xE0001058) - Data: 00 00 00 00  returns 0x01 (0001ms, 0697ms total)
T1F38 001:697 JLINK_ReadReg(R0)  returns 0x20004AE0 (0000ms, 0697ms total)
T1F38 001:697 JLINK_ReadReg(R1)  returns 0x20004CE0 (0000ms, 0697ms total)
T1F38 001:697 JLINK_ReadReg(R2)  returns 0x20004CE0 (0000ms, 0697ms total)
T1F38 001:697 JLINK_ReadReg(R3)  returns 0x20004CE0 (0000ms, 0697ms total)
T1F38 001:697 JLINK_ReadReg(R4)  returns 0x00000000 (0000ms, 0697ms total)
T1F38 001:697 JLINK_ReadReg(R5)  returns 0x20004A7C (0000ms, 0697ms total)
T1F38 001:697 JLINK_ReadReg(R6)  returns 0x00000000 (0000ms, 0697ms total)
T1F38 001:697 JLINK_ReadReg(R7)  returns 0x00000000 (0000ms, 0697ms total)
T1F38 001:697 JLINK_ReadReg(R8)  returns 0x00000000 (0000ms, 0697ms total)
T1F38 001:697 JLINK_ReadReg(R9)  returns 0x00000000 (0000ms, 0697ms total)
T1F38 001:697 JLINK_ReadReg(R10)  returns 0x08003E3C (0000ms, 0697ms total)
T1F38 001:697 JLINK_ReadReg(R11)  returns 0x00000000 (0000ms, 0697ms total)
T1F38 001:697 JLINK_ReadReg(R12)  returns 0x20004ABC (0000ms, 0697ms total)
T1F38 001:697 JLINK_ReadReg(R13 (SP))  returns 0x200050E0 (0000ms, 0697ms total)
T1F38 001:697 JLINK_ReadReg(R14)  returns 0x08000231 (0000ms, 0697ms total)
T1F38 001:697 JLINK_ReadReg(R15 (PC))  returns 0x08002960 (0000ms, 0697ms total)
T1F38 001:697 JLINK_ReadReg(XPSR)  returns 0x61000000 (0000ms, 0697ms total)
T1F38 001:697 JLINK_ReadReg(MSP)  returns 0x200050E0 (0001ms, 0698ms total)
T1F38 001:698 JLINK_ReadReg(PSP)  returns 0x00000000 (0000ms, 0698ms total)
T1F38 001:698 JLINK_ReadReg(CFBP)  returns 0x04000000 (0000ms, 0698ms total)
T1F38 001:698 JLINK_ReadReg(FPSCR)  returns 0x03000000 (0012ms, 0710ms total)
T1F38 001:710 JLINK_ReadReg(FPS0)  returns 0x00000000 (0001ms, 0711ms total)
T1F38 001:711 JLINK_ReadReg(FPS1)  returns 0x00000000 (0000ms, 0711ms total)
T1F38 001:711 JLINK_ReadReg(FPS2)  returns 0x00000000 (0000ms, 0711ms total)
T1F38 001:711 JLINK_ReadReg(FPS3)  returns 0x00000000 (0000ms, 0711ms total)
T1F38 001:711 JLINK_ReadReg(FPS4)  returns 0x00000000 (0000ms, 0711ms total)
T1F38 001:711 JLINK_ReadReg(FPS5)  returns 0x00000000 (0000ms, 0711ms total)
T1F38 001:711 JLINK_ReadReg(FPS6)  returns 0x00000000 (0000ms, 0711ms total)
T1F38 001:711 JLINK_ReadReg(FPS7)  returns 0x00000000 (0000ms, 0711ms total)
T1F38 001:711 JLINK_ReadReg(FPS8)  returns 0x00000000 (0000ms, 0711ms total)
T1F38 001:711 JLINK_ReadReg(FPS9)  returns 0x00000000 (0000ms, 0711ms total)
T1F38 001:711 JLINK_ReadReg(FPS10)  returns 0x00000000 (0000ms, 0711ms total)
T1F38 001:711 JLINK_ReadReg(FPS11)  returns 0x00000000 (0000ms, 0711ms total)
T1F38 001:711 JLINK_ReadReg(FPS12)  returns 0x00000000 (0000ms, 0711ms total)
T1F38 001:711 JLINK_ReadReg(FPS13)  returns 0x00000000 (0000ms, 0711ms total)
T1F38 001:711 JLINK_ReadReg(FPS14)  returns 0x00000000 (0000ms, 0711ms total)
T1F38 001:711 JLINK_ReadReg(FPS15)  returns 0x00000000 (0000ms, 0711ms total)
T1F38 001:711 JLINK_ReadReg(FPS16)  returns 0x00000000 (0000ms, 0711ms total)
T1F38 001:711 JLINK_ReadReg(FPS17)  returns 0x00000000 (0000ms, 0711ms total)
T1F38 001:711 JLINK_ReadReg(FPS18)  returns 0x00000000 (0000ms, 0711ms total)
T1F38 001:711 JLINK_ReadReg(FPS19)  returns 0x00000000 (0000ms, 0711ms total)
T1F38 001:711 JLINK_ReadReg(FPS20)  returns 0x00000000 (0000ms, 0711ms total)
T1F38 001:711 JLINK_ReadReg(FPS21)  returns 0x00000000 (0000ms, 0711ms total)
T1F38 001:711 JLINK_ReadReg(FPS22)  returns 0x00000000 (0000ms, 0711ms total)
T1F38 001:711 JLINK_ReadReg(FPS23)  returns 0x00000000 (0000ms, 0711ms total)
T1F38 001:711 JLINK_ReadReg(FPS24)  returns 0x00000000 (0000ms, 0711ms total)
T1F38 001:711 JLINK_ReadReg(FPS25)  returns 0x00000000 (0000ms, 0711ms total)
T1F38 001:711 JLINK_ReadReg(FPS26)  returns 0x00000000 (0000ms, 0711ms total)
T1F38 001:711 JLINK_ReadReg(FPS27)  returns 0x00000000 (0000ms, 0711ms total)
T1F38 001:711 JLINK_ReadReg(FPS28)  returns 0x00000000 (0000ms, 0711ms total)
T1F38 001:711 JLINK_ReadReg(FPS29)  returns 0x00000000 (0000ms, 0711ms total)
T1F38 001:711 JLINK_ReadReg(FPS30)  returns 0x00000000 (0000ms, 0711ms total)
T1F38 001:711 JLINK_ReadReg(FPS31)  returns 0x00000000 (0001ms, 0712ms total)
T1748 001:714 JLINK_ReadMemU32(0xE0001004, 0x0001 Items, ...) -- CPU_ReadMem(4 bytes @ 0xE0001004) - Data: 66 4D 00 00  returns 0x01 (0001ms, 0713ms total)
T1748 001:716 JLINK_ReadMem (0x08002960, 0x003C Bytes, ...) -- CPU_ReadMem(128 bytes @ 0x08002940) -- Updating C cache (128 bytes @ 0x08002940) -- Read from C cache (60 bytes @ 0x08002960) - Data: 2D ED 06 8B 00 24 00 25 FF F7 F0 FC 4F F4 40 70 ...  returns 0x00 (0005ms, 0718ms total)
T1F38 002:350 JLINK_SetBPEx(Addr = 0x08002AAE, Type = 0xFFFFFFF2)  returns 0x00000003 (0000ms, 0718ms total)
T1F38 002:350 JLINK_Go() -- CPU_WriteMem(4 bytes @ 0xE0002000) -- CPU_WriteMem(4 bytes @ 0xE0002008) -- CPU_WriteMem(4 bytes @ 0xE000200C) (0005ms, 0723ms total)
T1F38 002:456 JLINK_IsHalted()  returns TRUE (0008ms, 0731ms total)
T1F38 002:464 JLINK_Halt()  returns 0x00 (0000ms, 0723ms total)
T1F38 002:464 JLINK_IsHalted()  returns TRUE (0000ms, 0723ms total)
T1F38 002:464 JLINK_IsHalted()  returns TRUE (0000ms, 0723ms total)
T1F38 002:464 JLINK_IsHalted()  returns TRUE (0000ms, 0723ms total)
T1F38 002:464 JLINK_ReadReg(R15 (PC))  returns 0x08002AAE (0000ms, 0723ms total)
T1F38 002:464 JLINK_ReadReg(XPSR)  returns 0x81000000 (0000ms, 0723ms total)
T1F38 002:464 JLINK_ClrBPEx(BPHandle = 0x00000003)  returns 0x00 (0000ms, 0723ms total)
T1F38 002:464 JLINK_ReadMemU32(0xE000ED30, 0x0001 Items, ...) -- CPU_ReadMem(4 bytes @ 0xE000ED30) - Data: 03 00 00 00  returns 0x01 (0001ms, 0724ms total)
T1F38 002:465 JLINK_ReadMemU32(0xE0001028, 0x0001 Items, ...) -- CPU_ReadMem(4 bytes @ 0xE0001028) - Data: 00 00 00 00  returns 0x01 (0001ms, 0725ms total)
T1F38 002:466 JLINK_ReadMemU32(0xE0001038, 0x0001 Items, ...) -- CPU_ReadMem(4 bytes @ 0xE0001038) - Data: 00 02 00 00  returns 0x01 (0001ms, 0726ms total)
T1F38 002:467 JLINK_ReadMemU32(0xE0001048, 0x0001 Items, ...) -- CPU_ReadMem(4 bytes @ 0xE0001048) - Data: 00 00 00 00  returns 0x01 (0001ms, 0727ms total)
T1F38 002:468 JLINK_ReadMemU32(0xE0001058, 0x0001 Items, ...) -- CPU_ReadMem(4 bytes @ 0xE0001058) - Data: 00 00 00 00  returns 0x01 (0001ms, 0728ms total)
T1F38 002:469 JLINK_ReadReg(R0)  returns 0x3FBC4E66 (0000ms, 0728ms total)
T1F38 002:469 JLINK_ReadReg(R1)  returns 0x2000027C (0000ms, 0728ms total)
T1F38 002:469 JLINK_ReadReg(R2)  returns 0x3FBC4E60 (0000ms, 0728ms total)
T1F38 002:469 JLINK_ReadReg(R3)  returns 0x00000000 (0000ms, 0728ms total)
T1F38 002:469 JLINK_ReadReg(R4)  returns 0x00000000 (0000ms, 0728ms total)
T1F38 002:469 JLINK_ReadReg(R5)  returns 0x00000000 (0000ms, 0728ms total)
T1F38 002:469 JLINK_ReadReg(R6)  returns 0x0000000B (0000ms, 0728ms total)
T1F38 002:469 JLINK_ReadReg(R7)  returns 0x000000F0 (0000ms, 0728ms total)
T1F38 002:469 JLINK_ReadReg(R8)  returns 0x00000000 (0000ms, 0728ms total)
T1F38 002:469 JLINK_ReadReg(R9)  returns 0x00000000 (0000ms, 0728ms total)
T1F38 002:469 JLINK_ReadReg(R10)  returns 0x08003E3C (0000ms, 0728ms total)
T1F38 002:469 JLINK_ReadReg(R11)  returns 0x00000000 (0000ms, 0728ms total)
T1F38 002:469 JLINK_ReadReg(R12)  returns 0xCCCCCCC0 (0000ms, 0728ms total)
T1F38 002:469 JLINK_ReadReg(R13 (SP))  returns 0x200050C8 (0000ms, 0728ms total)
T1F38 002:469 JLINK_ReadReg(R14)  returns 0x08002AA9 (0001ms, 0729ms total)
T1F38 002:470 JLINK_ReadReg(R15 (PC))  returns 0x08002AAE (0000ms, 0729ms total)
T1F38 002:470 JLINK_ReadReg(XPSR)  returns 0x81000000 (0000ms, 0729ms total)
T1F38 002:470 JLINK_ReadReg(MSP)  returns 0x200050C8 (0000ms, 0729ms total)
T1F38 002:470 JLINK_ReadReg(PSP)  returns 0x00000000 (0000ms, 0729ms total)
T1F38 002:470 JLINK_ReadReg(CFBP)  returns 0x04000000 (0000ms, 0729ms total)
T1F38 002:470 JLINK_ReadReg(FPSCR)  returns 0x03000000 (0013ms, 0742ms total)
T1F38 002:483 JLINK_ReadReg(FPS0)  returns 0x00000000 (0000ms, 0742ms total)
T1F38 002:483 JLINK_ReadReg(FPS1)  returns 0x40B00000 (0000ms, 0742ms total)
T1F38 002:483 JLINK_ReadReg(FPS2)  returns 0x00000000 (0000ms, 0742ms total)
T1F38 002:483 JLINK_ReadReg(FPS3)  returns 0x00000000 (0000ms, 0742ms total)
T1F38 002:483 JLINK_ReadReg(FPS4)  returns 0x00000000 (0000ms, 0742ms total)
T1F38 002:483 JLINK_ReadReg(FPS5)  returns 0x00000000 (0000ms, 0742ms total)
T1F38 002:483 JLINK_ReadReg(FPS6)  returns 0x00000000 (0000ms, 0742ms total)
T1F38 002:483 JLINK_ReadReg(FPS7)  returns 0x00000000 (0000ms, 0742ms total)
T1F38 002:483 JLINK_ReadReg(FPS8)  returns 0x00000000 (0000ms, 0742ms total)
T1F38 002:483 JLINK_ReadReg(FPS9)  returns 0x00000000 (0000ms, 0742ms total)
T1F38 002:483 JLINK_ReadReg(FPS10)  returns 0x00000000 (0000ms, 0742ms total)
T1F38 002:483 JLINK_ReadReg(FPS11)  returns 0x00000000 (0000ms, 0742ms total)
T1F38 002:483 JLINK_ReadReg(FPS12)  returns 0x00000000 (0000ms, 0742ms total)
T1F38 002:483 JLINK_ReadReg(FPS13)  returns 0x00000000 (0000ms, 0742ms total)
T1F38 002:483 JLINK_ReadReg(FPS14)  returns 0x00000000 (0000ms, 0742ms total)
T1F38 002:483 JLINK_ReadReg(FPS15)  returns 0x00000000 (0000ms, 0742ms total)
T1F38 002:483 JLINK_ReadReg(FPS16)  returns 0xCCCCCCCC (0000ms, 0742ms total)
T1F38 002:483 JLINK_ReadReg(FPS17)  returns 0x3FF789CC (0000ms, 0742ms total)
T1F38 002:483 JLINK_ReadReg(FPS18)  returns 0xCCCCCCCC (0000ms, 0742ms total)
T1F38 002:483 JLINK_ReadReg(FPS19)  returns 0x40B789CC (0000ms, 0742ms total)
T1F38 002:483 JLINK_ReadReg(FPS20)  returns 0x00000000 (0000ms, 0742ms total)
T1F38 002:483 JLINK_ReadReg(FPS21)  returns 0x409C8800 (0000ms, 0742ms total)
T1F38 002:483 JLINK_ReadReg(FPS22)  returns 0x00000000 (0001ms, 0743ms total)
T1F38 002:484 JLINK_ReadReg(FPS23)  returns 0x00000000 (0000ms, 0743ms total)
T1F38 002:484 JLINK_ReadReg(FPS24)  returns 0x00000000 (0000ms, 0743ms total)
T1F38 002:484 JLINK_ReadReg(FPS25)  returns 0x00000000 (0000ms, 0743ms total)
T1F38 002:484 JLINK_ReadReg(FPS26)  returns 0x00000000 (0000ms, 0743ms total)
T1F38 002:484 JLINK_ReadReg(FPS27)  returns 0x00000000 (0000ms, 0743ms total)
T1F38 002:484 JLINK_ReadReg(FPS28)  returns 0x00000000 (0000ms, 0743ms total)
T1F38 002:484 JLINK_ReadReg(FPS29)  returns 0x00000000 (0000ms, 0743ms total)
T1F38 002:484 JLINK_ReadReg(FPS30)  returns 0x00000000 (0000ms, 0743ms total)
T1F38 002:484 JLINK_ReadReg(FPS31)  returns 0x00000000 (0000ms, 0743ms total)
T1748 002:484 JLINK_ReadMemU32(0xE0001004, 0x0001 Items, ...) -- CPU_ReadMem(4 bytes @ 0xE0001004) - Data: 5A 84 29 00  returns 0x01 (0001ms, 0744ms total)
T1748 002:487 JLINK_ReadMem (0x08002AAE, 0x0002 Bytes, ...) -- CPU_ReadMem(64 bytes @ 0x08002A80) -- Updating C cache (64 bytes @ 0x08002A80) -- Read from C cache (2 bytes @ 0x08002AAE) - Data: 5D 48  returns 0x00 (0003ms, 0747ms total)
T1748 002:490 JLINK_ReadMem (0x08002AB0, 0x003C Bytes, ...) -- CPU_ReadMem(64 bytes @ 0x08002AC0) -- Updating C cache (64 bytes @ 0x08002AC0) -- Read from C cache (60 bytes @ 0x08002AB0) - Data: 00 88 00 F0 59 FB 41 EC 1A 0B 9F ED 5B 0B 53 EC ...  returns 0x00 (0003ms, 0750ms total)
T1F38 003:111 JLINK_Step() -- Read from C cache (2 bytes @ 0x08002AAE) -- CPU_ReadMem(64 bytes @ 0x08002C00) -- Updating C cache (64 bytes @ 0x08002C00) -- Read from C cache (4 bytes @ 0x08002C24) -- Simulated  returns 0x00 (0004ms, 0754ms total)
T1F38 003:115 JLINK_ReadReg(R15 (PC))  returns 0x08002AB0 (0000ms, 0754ms total)
T1F38 003:115 JLINK_ReadReg(XPSR)  returns 0x81000000 (0000ms, 0754ms total)
T1F38 003:115 JLINK_SetBPEx(Addr = 0x08002AAE, Type = 0xFFFFFFF2)  returns 0x00000004 (0000ms, 0754ms total)
T1F38 003:115 JLINK_Go() -- CPU_WriteMem(4 bytes @ 0xE0002000) -- CPU_WriteMem(4 bytes @ 0xE0001004) (0004ms, 0758ms total)
T1F38 003:220 JLINK_IsHalted()  returns TRUE (0008ms, 0766ms total)
T1F38 003:228 JLINK_Halt()  returns 0x00 (0000ms, 0758ms total)
T1F38 003:228 JLINK_IsHalted()  returns TRUE (0000ms, 0758ms total)
T1F38 003:228 JLINK_IsHalted()  returns TRUE (0000ms, 0758ms total)
T1F38 003:228 JLINK_IsHalted()  returns TRUE (0000ms, 0758ms total)
T1F38 003:228 JLINK_ReadReg(R15 (PC))  returns 0x08002AAE (0000ms, 0758ms total)
T1F38 003:228 JLINK_ReadReg(XPSR)  returns 0x21000000 (0000ms, 0758ms total)
T1F38 003:229 JLINK_ClrBPEx(BPHandle = 0x00000004)  returns 0x00 (0000ms, 0759ms total)
T1F38 003:229 JLINK_ReadMemU32(0xE000ED30, 0x0001 Items, ...) -- CPU_ReadMem(4 bytes @ 0xE000ED30) - Data: 03 00 00 00  returns 0x01 (0001ms, 0760ms total)
T1F38 003:230 JLINK_ReadMemU32(0xE0001028, 0x0001 Items, ...) -- CPU_ReadMem(4 bytes @ 0xE0001028) - Data: 00 00 00 00  returns 0x01 (0001ms, 0761ms total)
T1F38 003:231 JLINK_ReadMemU32(0xE0001038, 0x0001 Items, ...) -- CPU_ReadMem(4 bytes @ 0xE0001038) - Data: 00 02 00 00  returns 0x01 (0001ms, 0762ms total)
T1F38 003:232 JLINK_ReadMemU32(0xE0001048, 0x0001 Items, ...) -- CPU_ReadMem(4 bytes @ 0xE0001048) - Data: 00 00 00 00  returns 0x01 (0001ms, 0763ms total)
T1F38 003:233 JLINK_ReadMemU32(0xE0001058, 0x0001 Items, ...) -- CPU_ReadMem(4 bytes @ 0xE0001058) - Data: 00 00 00 00  returns 0x01 (0001ms, 0764ms total)
T1F38 003:234 JLINK_ReadReg(R0)  returns 0x3FCFB19A (0001ms, 0765ms total)
T1F38 003:235 JLINK_ReadReg(R1)  returns 0x2000027C (0000ms, 0765ms total)
T1F38 003:235 JLINK_ReadReg(R2)  returns 0x3FCFB198 (0000ms, 0765ms total)
T1F38 003:235 JLINK_ReadReg(R3)  returns 0x00000000 (0000ms, 0765ms total)
T1F38 003:235 JLINK_ReadReg(R4)  returns 0x00000001 (0000ms, 0765ms total)
T1F38 003:235 JLINK_ReadReg(R5)  returns 0x00000000 (0000ms, 0765ms total)
T1F38 003:235 JLINK_ReadReg(R6)  returns 0x0000000B (0001ms, 0766ms total)
T1F38 003:236 JLINK_ReadReg(R7)  returns 0x000000F0 (0000ms, 0766ms total)
T1F38 003:236 JLINK_ReadReg(R8)  returns 0x00000000 (0000ms, 0766ms total)
T1F38 003:236 JLINK_ReadReg(R9)  returns 0x00000000 (0000ms, 0766ms total)
T1F38 003:236 JLINK_ReadReg(R10)  returns 0x08003E3C (0000ms, 0766ms total)
T1F38 003:236 JLINK_ReadReg(R11)  returns 0x00000000 (0000ms, 0766ms total)
T1F38 003:236 JLINK_ReadReg(R12)  returns 0x33333330 (0000ms, 0766ms total)
T1F38 003:236 JLINK_ReadReg(R13 (SP))  returns 0x200050C8 (0000ms, 0766ms total)
T1F38 003:236 JLINK_ReadReg(R14)  returns 0x08002AA9 (0001ms, 0767ms total)
T1F38 003:237 JLINK_ReadReg(R15 (PC))  returns 0x08002AAE (0000ms, 0767ms total)
T1F38 003:237 JLINK_ReadReg(XPSR)  returns 0x21000000 (0000ms, 0767ms total)
T1F38 003:237 JLINK_ReadReg(MSP)  returns 0x200050C8 (0000ms, 0767ms total)
T1F38 003:237 JLINK_ReadReg(PSP)  returns 0x00000000 (0000ms, 0767ms total)
T1F38 003:237 JLINK_ReadReg(CFBP)  returns 0x04000000 (0000ms, 0767ms total)
T1F38 003:237 JLINK_ReadReg(FPSCR)  returns 0x03000000 (0013ms, 0780ms total)
T1F38 003:250 JLINK_ReadReg(FPS0)  returns 0x00000000 (0000ms, 0780ms total)
T1F38 003:250 JLINK_ReadReg(FPS1)  returns 0x40B00000 (0000ms, 0780ms total)
T1F38 003:251 JLINK_ReadReg(FPS2)  returns 0x00000000 (0000ms, 0780ms total)
T1F38 003:251 JLINK_ReadReg(FPS3)  returns 0x00000000 (0000ms, 0780ms total)
T1F38 003:251 JLINK_ReadReg(FPS4)  returns 0x00000000 (0000ms, 0780ms total)
T1F38 003:251 JLINK_ReadReg(FPS5)  returns 0x00000000 (0000ms, 0780ms total)
T1F38 003:251 JLINK_ReadReg(FPS6)  returns 0x00000000 (0000ms, 0780ms total)
T1F38 003:251 JLINK_ReadReg(FPS7)  returns 0x00000000 (0000ms, 0780ms total)
T1F38 003:251 JLINK_ReadReg(FPS8)  returns 0x00000000 (0000ms, 0780ms total)
T1F38 003:251 JLINK_ReadReg(FPS9)  returns 0x00000000 (0000ms, 0780ms total)
T1F38 003:251 JLINK_ReadReg(FPS10)  returns 0x00000000 (0001ms, 0781ms total)
T1F38 003:252 JLINK_ReadReg(FPS11)  returns 0x00000000 (0000ms, 0781ms total)
T1F38 003:252 JLINK_ReadReg(FPS12)  returns 0x00000000 (0000ms, 0781ms total)
T1F38 003:252 JLINK_ReadReg(FPS13)  returns 0x00000000 (0000ms, 0781ms total)
T1F38 003:252 JLINK_ReadReg(FPS14)  returns 0x00000000 (0000ms, 0781ms total)
T1F38 003:252 JLINK_ReadReg(FPS15)  returns 0x00000000 (0000ms, 0781ms total)
T1F38 003:252 JLINK_ReadReg(FPS16)  returns 0x33333333 (0000ms, 0781ms total)
T1F38 003:252 JLINK_ReadReg(FPS17)  returns 0x3FF9F633 (0000ms, 0781ms total)
T1F38 003:252 JLINK_ReadReg(FPS18)  returns 0x33333333 (0000ms, 0781ms total)
T1F38 003:252 JLINK_ReadReg(FPS19)  returns 0x40B9F633 (0001ms, 0782ms total)
T1F38 003:253 JLINK_ReadReg(FPS20)  returns 0x00000000 (0000ms, 0782ms total)
T1F38 003:253 JLINK_ReadReg(FPS21)  returns 0x409F7800 (0000ms, 0782ms total)
T1F38 003:253 JLINK_ReadReg(FPS22)  returns 0x00000000 (0000ms, 0782ms total)
T1F38 003:253 JLINK_ReadReg(FPS23)  returns 0x00000000 (0000ms, 0782ms total)
T1F38 003:253 JLINK_ReadReg(FPS24)  returns 0x00000000 (0000ms, 0782ms total)
T1F38 003:253 JLINK_ReadReg(FPS25)  returns 0x00000000 (0000ms, 0782ms total)
T1F38 003:253 JLINK_ReadReg(FPS26)  returns 0x00000000 (0000ms, 0782ms total)
T1F38 003:253 JLINK_ReadReg(FPS27)  returns 0x00000000 (0000ms, 0782ms total)
T1F38 003:253 JLINK_ReadReg(FPS28)  returns 0x00000000 (0000ms, 0782ms total)
T1F38 003:254 JLINK_ReadReg(FPS29)  returns 0x00000000 (0000ms, 0783ms total)
T1F38 003:254 JLINK_ReadReg(FPS30)  returns 0x00000000 (0000ms, 0783ms total)
T1F38 003:254 JLINK_ReadReg(FPS31)  returns 0x00000000 (0000ms, 0783ms total)
T1748 003:255 JLINK_ReadMemU32(0xE0001004, 0x0001 Items, ...) -- CPU_ReadMem(4 bytes @ 0xE0001004) - Data: 57 A4 33 00  returns 0x01 (0001ms, 0784ms total)
T1748 004:207 JLINK_ReadMem (0x20000016, 0x0002 Bytes, ...) -- CPU_ReadMem(64 bytes @ 0x20000000) -- Updating C cache (64 bytes @ 0x20000000) -- Read from C cache (2 bytes @ 0x20000016) - Data: 80 06  returns 0x00 (0003ms, 0787ms total)
T1F38 006:933 JLINK_Step() -- CPU_ReadMem(64 bytes @ 0x08002A80) -- Updating C cache (64 bytes @ 0x08002A80) -- Read from C cache (2 bytes @ 0x08002AAE) -- CPU_ReadMem(64 bytes @ 0x08002C00) -- Updating C cache (64 bytes @ 0x08002C00) -- Read from C cache (4 bytes @ 0x08002C24) -- Simulated  returns 0x00 (0006ms, 0793ms total)
T1F38 006:939 JLINK_ReadReg(R15 (PC))  returns 0x08002AB0 (0000ms, 0793ms total)
T1F38 006:940 JLINK_ReadReg(XPSR)  returns 0x21000000 (0000ms, 0794ms total)
T1F38 006:940 JLINK_SetBPEx(Addr = 0x08002AAE, Type = 0xFFFFFFF2)  returns 0x00000005 (0000ms, 0794ms total)
T1F38 006:940 JLINK_Go() -- CPU_WriteMem(4 bytes @ 0xE0002000) -- CPU_WriteMem(4 bytes @ 0xE0001004) (0004ms, 0798ms total)
T1F38 007:045 JLINK_IsHalted()  returns TRUE (0008ms, 0806ms total)
T1F38 007:053 JLINK_Halt()  returns 0x00 (0000ms, 0798ms total)
T1F38 007:053 JLINK_IsHalted()  returns TRUE (0000ms, 0798ms total)
T1F38 007:053 JLINK_IsHalted()  returns TRUE (0000ms, 0798ms total)
T1F38 007:053 JLINK_IsHalted()  returns TRUE (0001ms, 0799ms total)
T1F38 007:054 JLINK_ReadReg(R15 (PC))  returns 0x08002AAE (0000ms, 0798ms total)
T1F38 007:054 JLINK_ReadReg(XPSR)  returns 0x01000000 (0000ms, 0798ms total)
T1F38 007:054 JLINK_ClrBPEx(BPHandle = 0x00000005)  returns 0x00 (0000ms, 0798ms total)
T1F38 007:054 JLINK_ReadMemU32(0xE000ED30, 0x0001 Items, ...) -- CPU_ReadMem(4 bytes @ 0xE000ED30) - Data: 03 00 00 00  returns 0x01 (0001ms, 0799ms total)
T1F38 007:055 JLINK_ReadMemU32(0xE0001028, 0x0001 Items, ...) -- CPU_ReadMem(4 bytes @ 0xE0001028) - Data: 00 00 00 00  returns 0x01 (0001ms, 0800ms total)
T1F38 007:056 JLINK_ReadMemU32(0xE0001038, 0x0001 Items, ...) -- CPU_ReadMem(4 bytes @ 0xE0001038) - Data: 00 02 00 00  returns 0x01 (0002ms, 0802ms total)
T1F38 007:058 JLINK_ReadMemU32(0xE0001048, 0x0001 Items, ...) -- CPU_ReadMem(4 bytes @ 0xE0001048) - Data: 00 00 00 00  returns 0x01 (0001ms, 0803ms total)
T1F38 007:059 JLINK_ReadMemU32(0xE0001058, 0x0001 Items, ...) -- CPU_ReadMem(4 bytes @ 0xE0001058) - Data: 00 00 00 00  returns 0x01 (0001ms, 0804ms total)
T1F38 007:060 JLINK_ReadReg(R0)  returns 0x3FC75733 (0000ms, 0804ms total)
T1F38 007:060 JLINK_ReadReg(R1)  returns 0x2000027C (0000ms, 0804ms total)
T1F38 007:060 JLINK_ReadReg(R2)  returns 0x3FC75730 (0000ms, 0804ms total)
T1F38 007:060 JLINK_ReadReg(R3)  returns 0x00000000 (0000ms, 0804ms total)
T1F38 007:060 JLINK_ReadReg(R4)  returns 0x00000002 (0000ms, 0804ms total)
T1F38 007:061 JLINK_ReadReg(R5)  returns 0x00000000 (0000ms, 0805ms total)
T1F38 007:061 JLINK_ReadReg(R6)  returns 0x0000000B (0000ms, 0805ms total)
T1F38 007:061 JLINK_ReadReg(R7)  returns 0x000000F0 (0000ms, 0805ms total)
T1F38 007:061 JLINK_ReadReg(R8)  returns 0x00000000 (0000ms, 0805ms total)
T1F38 007:061 JLINK_ReadReg(R9)  returns 0x00000000 (0000ms, 0805ms total)
T1F38 007:061 JLINK_ReadReg(R10)  returns 0x08003E3C (0000ms, 0805ms total)
T1F38 007:061 JLINK_ReadReg(R11)  returns 0x00000000 (0000ms, 0805ms total)
T1F38 007:061 JLINK_ReadReg(R12)  returns 0x66666660 (0000ms, 0805ms total)
T1F38 007:061 JLINK_ReadReg(R13 (SP))  returns 0x200050C8 (0000ms, 0805ms total)
T1F38 007:061 JLINK_ReadReg(R14)  returns 0x08002AA9 (0000ms, 0805ms total)
T1F38 007:061 JLINK_ReadReg(R15 (PC))  returns 0x08002AAE (0000ms, 0805ms total)
T1F38 007:061 JLINK_ReadReg(XPSR)  returns 0x01000000 (0000ms, 0805ms total)
T1F38 007:062 JLINK_ReadReg(MSP)  returns 0x200050C8 (0000ms, 0806ms total)
T1F38 007:062 JLINK_ReadReg(PSP)  returns 0x00000000 (0000ms, 0806ms total)
T1F38 007:062 JLINK_ReadReg(CFBP)  returns 0x04000000 (0000ms, 0806ms total)
T1F38 007:062 JLINK_ReadReg(FPSCR)  returns 0x03000000 (0013ms, 0819ms total)
T1F38 007:075 JLINK_ReadReg(FPS0)  returns 0x00000000 (0000ms, 0819ms total)
T1F38 007:075 JLINK_ReadReg(FPS1)  returns 0x40B00000 (0000ms, 0819ms total)
T1F38 007:075 JLINK_ReadReg(FPS2)  returns 0x00000000 (0000ms, 0819ms total)
T1F38 007:075 JLINK_ReadReg(FPS3)  returns 0x00000000 (0000ms, 0819ms total)
T1F38 007:075 JLINK_ReadReg(FPS4)  returns 0x00000000 (0000ms, 0819ms total)
T1F38 007:075 JLINK_ReadReg(FPS5)  returns 0x00000000 (0001ms, 0820ms total)
T1F38 007:076 JLINK_ReadReg(FPS6)  returns 0x00000000 (0000ms, 0820ms total)
T1F38 007:076 JLINK_ReadReg(FPS7)  returns 0x00000000 (0000ms, 0820ms total)
T1F38 007:076 JLINK_ReadReg(FPS8)  returns 0x00000000 (0000ms, 0820ms total)
T1F38 007:076 JLINK_ReadReg(FPS9)  returns 0x00000000 (0000ms, 0820ms total)
T1F38 007:076 JLINK_ReadReg(FPS10)  returns 0x00000000 (0000ms, 0820ms total)
T1F38 007:076 JLINK_ReadReg(FPS11)  returns 0x00000000 (0000ms, 0820ms total)
T1F38 007:076 JLINK_ReadReg(FPS12)  returns 0x00000000 (0000ms, 0820ms total)
T1F38 007:076 JLINK_ReadReg(FPS13)  returns 0x00000000 (0000ms, 0820ms total)
T1F38 007:077 JLINK_ReadReg(FPS14)  returns 0x00000000 (0000ms, 0821ms total)
T1F38 007:077 JLINK_ReadReg(FPS15)  returns 0x00000000 (0000ms, 0821ms total)
T1F38 007:077 JLINK_ReadReg(FPS16)  returns 0x66666666 (0000ms, 0821ms total)
T1F38 007:077 JLINK_ReadReg(FPS17)  returns 0x3FF8EAE6 (0000ms, 0821ms total)
T1F38 007:077 JLINK_ReadReg(FPS18)  returns 0x66666666 (0000ms, 0821ms total)
T1F38 007:077 JLINK_ReadReg(FPS19)  returns 0x40B8EAE6 (0001ms, 0822ms total)
T1F38 007:078 JLINK_ReadReg(FPS20)  returns 0x00000000 (0000ms, 0822ms total)
T1F38 007:078 JLINK_ReadReg(FPS21)  returns 0x409E3400 (0000ms, 0822ms total)
T1F38 007:078 JLINK_ReadReg(FPS22)  returns 0x00000000 (0000ms, 0822ms total)
T1F38 007:078 JLINK_ReadReg(FPS23)  returns 0x00000000 (0000ms, 0822ms total)
T1F38 007:078 JLINK_ReadReg(FPS24)  returns 0x00000000 (0000ms, 0822ms total)
T1F38 007:078 JLINK_ReadReg(FPS25)  returns 0x00000000 (0000ms, 0822ms total)
T1F38 007:078 JLINK_ReadReg(FPS26)  returns 0x00000000 (0000ms, 0822ms total)
T1F38 007:078 JLINK_ReadReg(FPS27)  returns 0x00000000 (0001ms, 0823ms total)
T1F38 007:079 JLINK_ReadReg(FPS28)  returns 0x00000000 (0000ms, 0823ms total)
T1F38 007:079 JLINK_ReadReg(FPS29)  returns 0x00000000 (0000ms, 0823ms total)
T1F38 007:079 JLINK_ReadReg(FPS30)  returns 0x00000000 (0000ms, 0823ms total)
T1F38 007:079 JLINK_ReadReg(FPS31)  returns 0x00000000 (0000ms, 0823ms total)
T1748 007:081 JLINK_ReadMemU32(0xE0001004, 0x0001 Items, ...) -- CPU_ReadMem(4 bytes @ 0xE0001004) - Data: D8 C4 38 00  returns 0x01 (0002ms, 0825ms total)
T1748 007:817 JLINK_ReadMem (0x20000014, 0x0002 Bytes, ...) -- CPU_ReadMem(64 bytes @ 0x20000000) -- Updating C cache (64 bytes @ 0x20000000) -- Read from C cache (2 bytes @ 0x20000014) - Data: B7 07  returns 0x00 (0003ms, 0828ms total)
T1F38 012:045 JLINK_Step() -- CPU_ReadMem(64 bytes @ 0x08002A80) -- Updating C cache (64 bytes @ 0x08002A80) -- Read from C cache (2 bytes @ 0x08002AAE) -- CPU_ReadMem(64 bytes @ 0x08002C00) -- Updating C cache (64 bytes @ 0x08002C00) -- Read from C cache (4 bytes @ 0x08002C24) -- Simulated  returns 0x00 (0007ms, 0835ms total)
T1F38 012:052 JLINK_ReadReg(R15 (PC))  returns 0x08002AB0 (0000ms, 0835ms total)
T1F38 012:052 JLINK_ReadReg(XPSR)  returns 0x01000000 (0000ms, 0835ms total)
T1F38 012:052 JLINK_SetBPEx(Addr = 0x08002AAE, Type = 0xFFFFFFF2)  returns 0x00000006 (0000ms, 0835ms total)
T1F38 012:052 JLINK_Go() -- CPU_WriteMem(4 bytes @ 0xE0002000) -- CPU_WriteMem(4 bytes @ 0xE0001004) (0004ms, 0839ms total)
T1F38 012:157 JLINK_IsHalted()  returns TRUE (0008ms, 0847ms total)
T1F38 012:165 JLINK_Halt()  returns 0x00 (0000ms, 0839ms total)
T1F38 012:165 JLINK_IsHalted()  returns TRUE (0000ms, 0839ms total)
T1F38 012:165 JLINK_IsHalted()  returns TRUE (0000ms, 0839ms total)
T1F38 012:165 JLINK_IsHalted()  returns TRUE (0000ms, 0839ms total)
T1F38 012:165 JLINK_ReadReg(R15 (PC))  returns 0x08002AAE (0001ms, 0840ms total)
T1F38 012:166 JLINK_ReadReg(XPSR)  returns 0x01000000 (0000ms, 0840ms total)
T1F38 012:166 JLINK_ClrBPEx(BPHandle = 0x00000006)  returns 0x00 (0000ms, 0840ms total)
T1F38 012:166 JLINK_ReadMemU32(0xE000ED30, 0x0001 Items, ...) -- CPU_ReadMem(4 bytes @ 0xE000ED30) - Data: 03 00 00 00  returns 0x01 (0001ms, 0841ms total)
T1F38 012:167 JLINK_ReadMemU32(0xE0001028, 0x0001 Items, ...) -- CPU_ReadMem(4 bytes @ 0xE0001028) - Data: 00 00 00 00  returns 0x01 (0001ms, 0842ms total)
T1F38 012:168 JLINK_ReadMemU32(0xE0001038, 0x0001 Items, ...) -- CPU_ReadMem(4 bytes @ 0xE0001038) - Data: 00 02 00 00  returns 0x01 (0001ms, 0843ms total)
T1F38 012:169 JLINK_ReadMemU32(0xE0001048, 0x0001 Items, ...) -- CPU_ReadMem(4 bytes @ 0xE0001048) - Data: 00 00 00 00  returns 0x01 (0001ms, 0844ms total)
T1F38 012:170 JLINK_ReadMemU32(0xE0001058, 0x0001 Items, ...) -- CPU_ReadMem(4 bytes @ 0xE0001058) - Data: 00 00 00 00  returns 0x01 (0002ms, 0846ms total)
T1F38 012:172 JLINK_ReadReg(R0)  returns 0x3FD54333 (0000ms, 0846ms total)
T1F38 012:172 JLINK_ReadReg(R1)  returns 0x2000027C (0000ms, 0846ms total)
T1F38 012:172 JLINK_ReadReg(R2)  returns 0x3FD54330 (0000ms, 0846ms total)
T1F38 012:172 JLINK_ReadReg(R3)  returns 0x00000000 (0000ms, 0846ms total)
T1F38 012:172 JLINK_ReadReg(R4)  returns 0x00000003 (0000ms, 0846ms total)
T1F38 012:172 JLINK_ReadReg(R5)  returns 0x00000000 (0000ms, 0846ms total)
T1F38 012:172 JLINK_ReadReg(R6)  returns 0x0000000B (0000ms, 0846ms total)
T1F38 012:172 JLINK_ReadReg(R7)  returns 0x000000F0 (0001ms, 0847ms total)
T1F38 012:173 JLINK_ReadReg(R8)  returns 0x00000000 (0000ms, 0847ms total)
T1F38 012:173 JLINK_ReadReg(R9)  returns 0x00000000 (0000ms, 0847ms total)
T1F38 012:173 JLINK_ReadReg(R10)  returns 0x08003E3C (0000ms, 0847ms total)
T1F38 012:173 JLINK_ReadReg(R11)  returns 0x00000000 (0000ms, 0847ms total)
T1F38 012:173 JLINK_ReadReg(R12)  returns 0x66666660 (0000ms, 0847ms total)
T1F38 012:173 JLINK_ReadReg(R13 (SP))  returns 0x200050C8 (0000ms, 0847ms total)
T1F38 012:173 JLINK_ReadReg(R14)  returns 0x08002AA9 (0000ms, 0847ms total)
T1F38 012:173 JLINK_ReadReg(R15 (PC))  returns 0x08002AAE (0000ms, 0847ms total)
T1F38 012:173 JLINK_ReadReg(XPSR)  returns 0x01000000 (0001ms, 0848ms total)
T1F38 012:174 JLINK_ReadReg(MSP)  returns 0x200050C8 (0000ms, 0848ms total)
T1F38 012:174 JLINK_ReadReg(PSP)  returns 0x00000000 (0000ms, 0848ms total)
T1F38 012:174 JLINK_ReadReg(CFBP)  returns 0x04000000 (0000ms, 0848ms total)
T1F38 012:174 JLINK_ReadReg(FPSCR)  returns 0x03000000 (0013ms, 0861ms total)
T1F38 012:187 JLINK_ReadReg(FPS0)  returns 0x00000000 (0000ms, 0861ms total)
T1F38 012:187 JLINK_ReadReg(FPS1)  returns 0x40B00000 (0000ms, 0861ms total)
T1F38 012:187 JLINK_ReadReg(FPS2)  returns 0x00000000 (0000ms, 0861ms total)
T1F38 012:187 JLINK_ReadReg(FPS3)  returns 0x00000000 (0000ms, 0861ms total)
T1F38 012:187 JLINK_ReadReg(FPS4)  returns 0x00000000 (0000ms, 0861ms total)
T1F38 012:188 JLINK_ReadReg(FPS5)  returns 0x00000000 (0000ms, 0862ms total)
T1F38 012:188 JLINK_ReadReg(FPS6)  returns 0x00000000 (0000ms, 0862ms total)
T1F38 012:188 JLINK_ReadReg(FPS7)  returns 0x00000000 (0000ms, 0862ms total)
T1F38 012:188 JLINK_ReadReg(FPS8)  returns 0x00000000 (0000ms, 0862ms total)
T1F38 012:188 JLINK_ReadReg(FPS9)  returns 0x00000000 (0000ms, 0862ms total)
T1F38 012:188 JLINK_ReadReg(FPS10)  returns 0x00000000 (0000ms, 0862ms total)
T1F38 012:188 JLINK_ReadReg(FPS11)  returns 0x00000000 (0000ms, 0862ms total)
T1F38 012:188 JLINK_ReadReg(FPS12)  returns 0x00000000 (0000ms, 0862ms total)
T1F38 012:188 JLINK_ReadReg(FPS13)  returns 0x00000000 (0000ms, 0862ms total)
T1F38 012:188 JLINK_ReadReg(FPS14)  returns 0x00000000 (0000ms, 0862ms total)
T1F38 012:189 JLINK_ReadReg(FPS15)  returns 0x00000000 (0000ms, 0863ms total)
T1F38 012:189 JLINK_ReadReg(FPS16)  returns 0x66666666 (0000ms, 0863ms total)
T1F38 012:189 JLINK_ReadReg(FPS17)  returns 0x3FFAA866 (0000ms, 0863ms total)
T1F38 012:189 JLINK_ReadReg(FPS18)  returns 0x66666666 (0000ms, 0863ms total)
T1F38 012:189 JLINK_ReadReg(FPS19)  returns 0x40BAA866 (0000ms, 0863ms total)
T1F38 012:189 JLINK_ReadReg(FPS20)  returns 0x00000000 (0000ms, 0863ms total)
T1F38 012:189 JLINK_ReadReg(FPS21)  returns 0x40A02800 (0000ms, 0863ms total)
T1F38 012:189 JLINK_ReadReg(FPS22)  returns 0x00000000 (0000ms, 0863ms total)
T1F38 012:189 JLINK_ReadReg(FPS23)  returns 0x00000000 (0000ms, 0863ms total)
T1F38 012:189 JLINK_ReadReg(FPS24)  returns 0x00000000 (0001ms, 0864ms total)
T1F38 012:190 JLINK_ReadReg(FPS25)  returns 0x00000000 (0000ms, 0864ms total)
T1F38 012:190 JLINK_ReadReg(FPS26)  returns 0x00000000 (0000ms, 0864ms total)
T1F38 012:190 JLINK_ReadReg(FPS27)  returns 0x00000000 (0000ms, 0864ms total)
T1F38 012:190 JLINK_ReadReg(FPS28)  returns 0x00000000 (0000ms, 0864ms total)
T1F38 012:190 JLINK_ReadReg(FPS29)  returns 0x00000000 (0000ms, 0864ms total)
T1F38 012:190 JLINK_ReadReg(FPS30)  returns 0x00000000 (0000ms, 0864ms total)
T1F38 012:190 JLINK_ReadReg(FPS31)  returns 0x00000000 (0000ms, 0864ms total)
T1748 012:191 JLINK_ReadMemU32(0xE0001004, 0x0001 Items, ...) -- CPU_ReadMem(4 bytes @ 0xE0001004) - Data: D2 05 43 00  returns 0x01 (0001ms, 0865ms total)
T1748 013:066 JLINK_ReadMem (0x20000016, 0x0002 Bytes, ...) -- CPU_ReadMem(64 bytes @ 0x20000000) -- Updating C cache (64 bytes @ 0x20000000) -- Read from C cache (2 bytes @ 0x20000016) - Data: 77 0D  returns 0x00 (0004ms, 0869ms total)
T1748 014:923 JLINK_ReadMem (0x20000014, 0x0002 Bytes, ...) -- Read from C cache (2 bytes @ 0x20000014) - Data: 55 08  returns 0x00 (0000ms, 0869ms total)
T1F38 021:197 JLINK_Go() -- CPU_WriteMem(4 bytes @ 0xE0002008) (0003ms, 0872ms total)
T1F38 021:301 JLINK_IsHalted()  returns FALSE (0001ms, 0873ms total)
T1F38 021:403 JLINK_IsHalted()  returns FALSE (0001ms, 0873ms total)
T1F38 021:505 JLINK_IsHalted()  returns FALSE (0001ms, 0873ms total)
T1F38 021:607 JLINK_IsHalted()  returns FALSE (0000ms, 0872ms total)
T1F38 021:708 JLINK_ReadMemU32(0xE0001004, 0x0001 Items, ...) -- CPU is running -- CPU_ReadMem(4 bytes @ 0xE0001004) - Data: CA CD 5C 05  returns 0x01 (0001ms, 0873ms total)
T1F38 021:710 JLINK_IsHalted()  returns FALSE (0001ms, 0874ms total)
T1F38 021:812 JLINK_IsHalted()  returns FALSE (0001ms, 0874ms total)
T1F38 021:914 JLINK_IsHalted()  returns FALSE (0001ms, 0874ms total)
T1F38 022:016 JLINK_IsHalted()  returns FALSE (0001ms, 0874ms total)
T1F38 022:118 JLINK_IsHalted()  returns FALSE (0001ms, 0874ms total)
T1F38 022:220 JLINK_ReadMemU32(0xE0001004, 0x0001 Items, ...) -- CPU is running -- CPU_ReadMem(4 bytes @ 0xE0001004) - Data: 82 0E 7C 0A  returns 0x01 (0001ms, 0874ms total)
T1F38 022:222 JLINK_IsHalted()  returns FALSE (0001ms, 0875ms total)
T1F38 022:324 JLINK_IsHalted()  returns FALSE (0001ms, 0875ms total)
T1F38 022:426 JLINK_IsHalted()  returns FALSE (0001ms, 0875ms total)
T1F38 022:528 JLINK_IsHalted()  returns FALSE (0001ms, 0875ms total)
T1F38 022:630 JLINK_IsHalted()  returns FALSE (0001ms, 0875ms total)
T1F38 022:732 JLINK_ReadMemU32(0xE0001004, 0x0001 Items, ...) -- CPU is running -- CPU_ReadMem(4 bytes @ 0xE0001004) - Data: 10 8A 9D 0F  returns 0x01 (0001ms, 0875ms total)
T1F38 022:734 JLINK_IsHalted()  returns FALSE (0001ms, 0876ms total)
T1F38 022:836 JLINK_IsHalted()  returns FALSE (0001ms, 0876ms total)
T1F38 022:938 JLINK_IsHalted()  returns FALSE (0001ms, 0876ms total)
T1F38 023:039 JLINK_IsHalted()  returns FALSE (0001ms, 0876ms total)
T1F38 023:142 JLINK_IsHalted()  returns FALSE (0001ms, 0876ms total)
T1F38 023:244 JLINK_IsHalted()  returns FALSE (0001ms, 0876ms total)
T1F38 023:346 JLINK_ReadMemU32(0xE0001004, 0x0001 Items, ...) -- CPU is running -- CPU_ReadMem(4 bytes @ 0xE0001004) - Data: 6D D4 C1 15  returns 0x01 (0001ms, 0876ms total)
T1F38 023:348 JLINK_IsHalted()  returns FALSE (0001ms, 0877ms total)
T1F38 023:450 JLINK_IsHalted()  returns FALSE (0001ms, 0877ms total)
T1F38 023:552 JLINK_IsHalted()  returns FALSE (0001ms, 0877ms total)
T1F38 023:654 JLINK_IsHalted()  returns FALSE (0001ms, 0877ms total)
T1F38 023:755 JLINK_IsHalted()  returns FALSE (0001ms, 0877ms total)
T1F38 023:856 JLINK_IsHalted()  returns FALSE (0001ms, 0877ms total)
T1F38 023:957 JLINK_ReadMemU32(0xE0001004, 0x0001 Items, ...) -- CPU is running -- CPU_ReadMem(4 bytes @ 0xE0001004) - Data: B4 10 E1 1B  returns 0x01 (0001ms, 0877ms total)
T1F38 023:958 JLINK_IsHalted()  returns FALSE (0001ms, 0878ms total)
T1F38 024:060 JLINK_IsHalted()  returns FALSE (0001ms, 0878ms total)
T1F38 024:162 JLINK_IsHalted()  returns FALSE (0001ms, 0878ms total)
T1F38 024:264 JLINK_IsHalted()  returns FALSE (0001ms, 0878ms total)
T1F38 024:367 JLINK_IsHalted()  returns FALSE (0000ms, 0877ms total)
T1F38 024:468 JLINK_ReadMemU32(0xE0001004, 0x0001 Items, ...) -- CPU is running -- CPU_ReadMem(4 bytes @ 0xE0001004) - Data: 6E 2C FD 20  returns 0x01 (0001ms, 0878ms total)
T1F38 024:469 JLINK_IsHalted()  returns FALSE (0001ms, 0879ms total)
T1F38 024:571 JLINK_IsHalted()  returns FALSE (0001ms, 0879ms total)
T1F38 024:672 JLINK_IsHalted()  returns FALSE (0001ms, 0879ms total)
T1F38 024:774 JLINK_IsHalted()  returns FALSE (0001ms, 0879ms total)
T1F38 024:876 JLINK_IsHalted()  returns FALSE (0000ms, 0878ms total)
T1F38 024:977 JLINK_IsHalted()  returns FALSE (0001ms, 0879ms total)
T1F38 025:079 JLINK_ReadMemU32(0xE0001004, 0x0001 Items, ...) -- CPU is running -- CPU_ReadMem(4 bytes @ 0xE0001004) - Data: B0 05 1D 27  returns 0x01 (0001ms, 0879ms total)
T1F38 025:080 JLINK_IsHalted()  returns FALSE (0001ms, 0880ms total)
T1F38 025:182 JLINK_IsHalted()  returns FALSE (0001ms, 0880ms total)
T1F38 025:283 JLINK_IsHalted()  returns FALSE (0001ms, 0880ms total)
T1F38 025:385 JLINK_IsHalted()  returns FALSE (0001ms, 0880ms total)
T1F38 025:487 JLINK_IsHalted()  returns FALSE (0001ms, 0880ms total)
T1F38 025:589 JLINK_IsHalted()  returns FALSE (0001ms, 0880ms total)
T1F38 025:691 JLINK_ReadMemU32(0xE0001004, 0x0001 Items, ...) -- CPU is running -- CPU_ReadMem(4 bytes @ 0xE0001004) - Data: 86 BA 3F 2D  returns 0x01 (0001ms, 0880ms total)
T1F38 025:692 JLINK_IsHalted()  returns FALSE (0001ms, 0881ms total)
T1F38 025:795 JLINK_IsHalted()  returns FALSE (0001ms, 0881ms total)
T1F38 025:897 JLINK_IsHalted()  returns FALSE (0001ms, 0881ms total)
T1F38 025:999 JLINK_IsHalted()  returns FALSE (0000ms, 0880ms total)
T1F38 026:100 JLINK_IsHalted()  returns FALSE (0001ms, 0881ms total)
T1F38 026:202 JLINK_ReadMemU32(0xE0001004, 0x0001 Items, ...) -- CPU is running -- CPU_ReadMem(4 bytes @ 0xE0001004) - Data: 10 EF 5A 32  returns 0x01 (0001ms, 0881ms total)
T1F38 026:203 JLINK_IsHalted()  returns FALSE (0000ms, 0881ms total)
T1F38 026:304 JLINK_IsHalted()  returns FALSE (0001ms, 0882ms total)
T1F38 026:406 JLINK_IsHalted()  returns FALSE (0001ms, 0882ms total)
T1F38 026:508 JLINK_IsHalted()  returns FALSE (0001ms, 0882ms total)
T1F38 026:610 JLINK_IsHalted()  returns FALSE (0001ms, 0882ms total)
T1F38 026:712 JLINK_IsHalted()  returns FALSE (0001ms, 0882ms total)
T1F38 026:814 JLINK_ReadMemU32(0xE0001004, 0x0001 Items, ...) -- CPU is running -- CPU_ReadMem(4 bytes @ 0xE0001004) - Data: 97 7A 7D 38  returns 0x01 (0001ms, 0882ms total)
T1F38 026:816 JLINK_IsHalted()  returns FALSE (0001ms, 0883ms total)
T1F38 026:918 JLINK_IsHalted()  returns FALSE (0001ms, 0883ms total)
T1F38 027:019 JLINK_IsHalted()  returns FALSE (0001ms, 0883ms total)
T1F38 027:120 JLINK_IsHalted()  returns FALSE (0002ms, 0884ms total)
T1F38 027:223 JLINK_IsHalted()  returns FALSE (0001ms, 0883ms total)
T1F38 027:324 JLINK_IsHalted()  returns FALSE (0001ms, 0883ms total)
T1F38 027:425 JLINK_ReadMemU32(0xE0001004, 0x0001 Items, ...) -- CPU is running -- CPU_ReadMem(4 bytes @ 0xE0001004) - Data: 56 08 9A 3E  returns 0x01 (0001ms, 0883ms total)
T1F38 027:426 JLINK_IsHalted()  returns FALSE (0001ms, 0884ms total)
T1F38 027:528 JLINK_IsHalted()  returns FALSE (0001ms, 0884ms total)
T1F38 027:630 JLINK_IsHalted()  returns FALSE (0001ms, 0884ms total)
T1F38 027:732 JLINK_IsHalted()  returns FALSE (0001ms, 0884ms total)
T1F38 027:834 JLINK_IsHalted()  returns FALSE (0001ms, 0884ms total)
T1F38 027:935 JLINK_IsHalted()  returns FALSE (0001ms, 0884ms total)
T1F38 028:037 JLINK_ReadMemU32(0xE0001004, 0x0001 Items, ...) -- CPU is running -- CPU_ReadMem(4 bytes @ 0xE0001004) - Data: 91 81 BC 44  returns 0x01 (0001ms, 0884ms total)
T1F38 028:038 JLINK_IsHalted()  returns FALSE (0001ms, 0885ms total)
T1F38 028:140 JLINK_IsHalted()  returns FALSE (0001ms, 0885ms total)
T1F38 028:242 JLINK_IsHalted()  returns FALSE (0001ms, 0885ms total)
T1F38 028:344 JLINK_IsHalted()  returns FALSE (0001ms, 0885ms total)
T1F38 028:446 JLINK_IsHalted()  returns FALSE (0001ms, 0885ms total)
T1F38 028:549 JLINK_ReadMemU32(0xE0001004, 0x0001 Items, ...) -- CPU is running -- CPU_ReadMem(4 bytes @ 0xE0001004) - Data: D0 32 DB 49  returns 0x01 (0001ms, 0885ms total)
T1F38 028:550 JLINK_IsHalted()  returns FALSE (0001ms, 0886ms total)
T1F38 028:652 JLINK_IsHalted()  returns FALSE (0001ms, 0886ms total)
T1F38 028:753 JLINK_IsHalted()  returns FALSE (0001ms, 0886ms total)
T1F38 028:855 JLINK_IsHalted()  returns FALSE (0001ms, 0886ms total)
T1F38 028:957 JLINK_IsHalted()  returns FALSE (0001ms, 0886ms total)
T1F38 029:059 JLINK_IsHalted()  returns FALSE (0001ms, 0886ms total)
T1F38 029:161 JLINK_ReadMemU32(0xE0001004, 0x0001 Items, ...) -- CPU is running -- CPU_ReadMem(4 bytes @ 0xE0001004) - Data: 3A 78 FD 4F  returns 0x01 (0001ms, 0886ms total)
T1F38 029:162 JLINK_IsHalted()  returns FALSE (0001ms, 0887ms total)
T1F38 029:264 JLINK_IsHalted()  returns FALSE (0001ms, 0887ms total)
T1F38 029:366 JLINK_IsHalted()  returns FALSE (0001ms, 0887ms total)
T1F38 029:468 JLINK_IsHalted()  returns FALSE (0001ms, 0887ms total)
T1F38 029:570 JLINK_IsHalted()  returns FALSE (0001ms, 0887ms total)
T1F38 029:671 JLINK_ReadMemU32(0xE0001004, 0x0001 Items, ...) -- CPU is running -- CPU_ReadMem(4 bytes @ 0xE0001004) - Data: 74 91 19 55  returns 0x01 (0001ms, 0887ms total)
T1F38 029:672 JLINK_IsHalted()  returns FALSE (0001ms, 0888ms total)
T1F38 029:774 JLINK_IsHalted()  returns FALSE (0001ms, 0888ms total)
T1F38 029:877 JLINK_IsHalted()  returns FALSE (0001ms, 0888ms total)
T1F38 029:978 JLINK_IsHalted()  returns FALSE (0001ms, 0888ms total)
T1F38 030:080 JLINK_IsHalted()  returns FALSE (0001ms, 0888ms total)
T1F38 030:181 JLINK_IsHalted()  returns FALSE (0001ms, 0888ms total)
T1F38 030:282 JLINK_ReadMemU32(0xE0001004, 0x0001 Items, ...) -- CPU is running -- CPU_ReadMem(4 bytes @ 0xE0001004) - Data: EC 3F 38 5B  returns 0x01 (0001ms, 0888ms total)
T1F38 030:291 JLINK_IsHalted()  returns FALSE (0001ms, 0890ms total)
T1F38 030:393 JLINK_IsHalted()  returns FALSE (0001ms, 0890ms total)
T1F38 030:495 JLINK_IsHalted()  returns FALSE (0001ms, 0890ms total)
T1F38 030:597 JLINK_IsHalted()  returns FALSE (0001ms, 0890ms total)
T1F38 030:698 JLINK_IsHalted()  returns FALSE (0001ms, 0890ms total)
